
**** 06/28/25 16:39:32 **** PSpice 23.1.0 (30 January 2024) *** ID# 0 ********

 ** Profile: "SCHEMATIC1-ACsim"  [ C:\PROJETO_FINAL\Repositório\Esquemático_Simulações_PSpice\audioin-PSpiceFiles\SCHEMATIC1\ACsim.si


 ****     CIRCUIT DESCRIPTION


******************************************************************************




** Creating circuit file "ACsim.cir" 
** WARNING: THIS AUTOMATICALLY GENERATED FILE MAY BE OVERWRITTEN BY SUBSEQUENT SIMULATIONS

*Libraries: 
* Profile Libraries :
* Local Libraries :
* From [PSPICE NETLIST] section of C:\cds_spb_home\cdssetup\OrCAD_PSpiceTIPSpice_Install\23.1.0\PSpice.ini file:
.lib "nom_pspti.lib" 
.lib "nom.lib" 

*Analysis directives: 
.TRAN  0 2ms 0 
.OPTIONS ADVCONV
.OPTIONS FILEMODELSEARCH
.PROBE64 V(alias(*)) I(alias(*)) W(alias(*)) D(alias(*)) NOISE(alias(*)) 
.INC "..\SCHEMATIC1.net" 



**** INCLUDING SCHEMATIC1.net ****
* source AUDIOIN
.EXTERNAL OUTPUT VCC+
.EXTERNAL OUTPUT VCC-
.EXTERNAL OUTPUT VREF
.EXTERNAL OUTPUT Buffer_Out
.EXTERNAL OUTPUT CS_OUT
.EXTERNAL OUTPUT V8
.EXTERNAL OUTPUT ALIAS_OUT
.EXTERNAL OUTPUT 3.3V
C_C10         0 N02426  2.2n  TC=0,0 
R_R9         N02426 N02884  10k TC=0,0 
R_R7         N02282 N02330  10k TC=0,0 
C_C9         0 N02452  1n  TC=0,0 
C_C6         N02282 N02124  3.3n  TC=0,0 
R_R10         N02884 N02452  10k TC=0,0 
C_C7         N02884 N02146  3.3n  TC=0,0 
C_C8         0 N02330  1.5n  TC=0,0 
E_U3         N02124 0 VALUE {LIMIT(V(N02330,N02124)*1E6,-15V,+15V)}
E_U4         N02146 0 VALUE {LIMIT(V(N02452,N02146)*1E6,-15V,+15V)}
R_R6         N02146 N02282  10k TC=0,0 
R_R8         CS_OUT N02426  10k TC=0,0 
E_U5         ALIAS_OUT 0 VALUE {LIMIT(V(N03986,ALIAS_OUT)*1E6,-15V,+15V)}
R_R11         N02124 N03928  10k TC=0,0 
C_C11         N03928 ALIAS_OUT  10n  TC=0,0 
C_C12         0 N03986  0.5n  TC=0,0 
R_R12         N03928 N03986  10k TC=0,0 
R_R13         BUFFER_OUT N05873  45.97k TC=0,0 
R_R16         N05881 N05911  10k TC=0,0 
R_R17         N05911 CS_OUT  10k TC=0,0 
V_V4         3.3V 0 3.3V
R_R14         VREF N05873  10k TC=0,0 
R_R15         N05873 N05881  10k TC=0,0 
X_U8         N07263 VREF VCC+ VCC- VREF UA741
V_V5         VCC+ 0 15
V_V6         VCC- 0 -15
R_R18         N07263 3.3V  10k TC=0,0 
R_R19         0 N07263  10k TC=0,0 
X_U9         0 N05873 VCC+ VCC- N05881 UA741
X_U10         0 N05911 VCC+ VCC- CS_OUT UA741
C_C13         N09132 N09186  1u  
R_R20         0 N09186  10k TC=0,0 
X_U11         N09186 BUFFER_OUT VCC+ VCC- BUFFER_OUT UA741
X_U12         ALIAS_OUT N10926 VCC+ VCC- N10876 UA741
D_D1         N10876 N10920 Dbreak 
R_R21         N10926 N10920  100 TC=0,0 
X_D2         0 N10926 Zener_parameterized PARAMS: VZT=3.3 RSF=100m
V_V8         V8 0 5
C_C14         VCC+ 0  0.1u  
C_C15         VCC- 0  0.1u  
V_V9         N09132 0  AC 0
+SIN 0 1.8 440 0 0 0

**** RESUMING ACsim.cir ****
.END

**** 06/28/25 16:39:32 **** PSpice 23.1.0 (30 January 2024) *** ID# 0 ********

 ** Profile: "SCHEMATIC1-ACsim"  [ C:\PROJETO_FINAL\Repositório\Esquemático_Simulações_PSpice\audioin-PSpiceFiles\SCHEMATIC1\ACsim.si


 ****     Diode MODEL PARAMETERS


******************************************************************************




               X_U8.DX         X_U9.DX         X_U10.DX        X_U11.DX        
          IS  800.000000E-18  800.000000E-18  800.000000E-18  800.000000E-18 


               X_U12.DX        
          IS  800.000000E-18 


**** 06/28/25 16:39:32 **** PSpice 23.1.0 (30 January 2024) *** ID# 0 ********

 ** Profile: "SCHEMATIC1-ACsim"  [ C:\PROJETO_FINAL\Repositório\Esquemático_Simulações_PSpice\audioin-PSpiceFiles\SCHEMATIC1\ACsim.si


 ****     BJT MODEL PARAMETERS


******************************************************************************




               X_U8.QX         X_U9.QX         X_U10.QX        X_U11.QX        
               NPN             NPN             NPN             NPN             
       LEVEL    1               1               1               1            
          IS  800.000000E-18  800.000000E-18  800.000000E-18  800.000000E-18 
          BF   62.5            62.5            62.5            62.5          
          NF    1               1               1               1            
          BR    1               1               1               1            
          NR    1               1               1               1            
         ISS    0               0               0               0            
          RE    0               0               0               0            
          RC    0               0               0               0            
         CJE    0               0               0               0            
         VJE     .75             .75             .75             .75         
         CJC    0               0               0               0            
         VJC     .75             .75             .75             .75         
         MJC     .33             .33             .33             .33         
        XCJC    1               1               1               1            
         CJS    0               0               0               0            
         VJS     .75             .75             .75             .75         
          KF    0               0               0               0            
          AF    1               1               1               1            
          CN    2.42            2.42            2.42            2.42         
           D     .87             .87             .87             .87         


               X_U12.QX        
               NPN             
       LEVEL    1            
          IS  800.000000E-18 
          BF   62.5          
          NF    1            
          BR    1            
          NR    1            
         ISS    0            
          RE    0            
          RC    0            
         CJE    0            
         VJE     .75         
         CJC    0            
         VJC     .75         
         MJC     .33         
        XCJC    1            
         CJS    0            
         VJS     .75         
          KF    0            
          AF    1            
          CN    2.42         
           D     .87         


**** 06/28/25 16:39:32 **** PSpice 23.1.0 (30 January 2024) *** ID# 0 ********

 ** Profile: "SCHEMATIC1-ACsim"  [ C:\PROJETO_FINAL\Repositório\Esquemático_Simulações_PSpice\audioin-PSpiceFiles\SCHEMATIC1\ACsim.si


 ****     INITIAL TRANSIENT SOLUTION       TEMPERATURE =   27.000 DEG C


******************************************************************************



 NODE   VOLTAGE     NODE   VOLTAGE     NODE   VOLTAGE     NODE   VOLTAGE


(   V8)    5.0000  ( 3.3V)    3.3000  ( VCC+)   15.0000  ( VCC-)  -15.0000      

( VREF)    1.6496  (CS_OUT)    1.6494 (N02124)    1.6494 (N02146)    1.6494     

(N02282)    1.6494 (N02330)    1.6494 (N02426)    1.6494 (N02452)    1.6494     

(N02884)    1.6494 (N03928)    1.6494 (N03986)    1.6494 (N05873) 19.20E-06     

(N05881)   -1.6486 (N05911) 3.393E-06 (N07263)    1.6496 (N09132)    0.0000     

(N09186)-797.3E-06 (N10876)    2.2408 (N10920)    1.6559 (N10926)    1.6493     

(X_D2.1)   -1.1554 (X_D2.3)    2.8047 (X_D2.9)-3.184E-15 (X_U8.6)-107.1E-06     

(X_U8.7)    1.6743 (X_U8.8)    1.6743 (X_U8.9)    0.0000 (X_U9.6) 110.2E-06     

(X_U9.7)   -1.6980 (X_U9.8)   -1.6980 (X_U9.9)    0.0000 (X_U10.6)-107.1E-06    

(X_U10.7)    1.6741                   (X_U10.8)    1.6741                       

(X_U10.9)    0.0000                   (X_U11.6) 48.36E-09                       

(X_U11.7)-776.8E-06                   (X_U11.8)-776.8E-06                       

(X_U11.9)    0.0000                   (X_U12.6)-142.5E-06                       

(X_U12.7)    2.2507                   (X_U12.8)    2.2507                       

(X_U12.9)    0.0000                   (X_U8.10)    1.0521                       

(X_U8.11)   14.9600                   (X_U8.12)   14.9600                       

(X_U8.13)    1.0661                   (X_U8.14)    1.0661                       

(X_U8.53)   12.4000                   (X_U8.54)  -12.4000                       

(X_U8.90)     .1650                   (X_U8.91)   25.0000                       

(X_U8.92)  -25.0000                   (X_U8.99)    0.0000                       

(X_U9.10)    -.5972                   (X_U9.11)   14.9600                       

(X_U9.12)   14.9600                   (X_U9.13)    -.5833                       

(X_U9.14)    -.5833                   (X_U9.53)   12.4000                       

(X_U9.54)  -12.4000                   (X_U9.90)    -.3297                       

(X_U9.91)   25.0000                   (X_U9.92)  -25.0000                       

(X_U9.99)    0.0000                   (X_U10.10)    -.5972                      

(X_U10.11)   14.9600                  (X_U10.12)   14.9600                      

(X_U10.13)    -.5833                  (X_U10.14)    -.5833                      

(X_U10.53)   12.4000                  (X_U10.54)  -12.4000                      

(X_U10.90)     .1649                  (X_U10.91)   25.0000                      

(X_U10.92)  -25.0000                  (X_U10.99)    0.0000                      

(X_U11.10)    -.5980                  (X_U11.11)   14.9600                      

(X_U11.12)   14.9600                  (X_U11.13)    -.5841                      

(X_U11.14)    -.5841                  (X_U11.53)   12.4000                      

(X_U11.54)  -12.4000                  (X_U11.90) 62.24E-06                      

(X_U11.91)   25.0000                  (X_U11.92)  -25.0000                      

(X_U11.99)    0.0000                  (X_U12.10)    1.0518                      

(X_U12.11)   14.9600                  (X_U12.12)   14.9600                      

(X_U12.13)    1.0658                  (X_U12.14)    1.0658                      

(X_U12.53)   12.4000                  (X_U12.54)  -12.4000                      

(X_U12.90)     .0661                  (X_U12.91)   25.0000                      

(X_U12.92)  -25.0000                  (X_U12.99)    0.0000                      

(ALIAS_OUT)    1.6494                 (BUFFER_OUT)-786.1E-06                




    VOLTAGE SOURCE CURRENTS
    NAME         CURRENT

    V_V4        -1.650E-04
    V_V5        -8.333E-03
    V_V6         8.334E-03
    V_V8         0.000E+00
    V_V9         0.000E+00
    X_U8.VB     -1.071E-09
    X_U8.VC      1.075E-11
    X_U8.VE      1.405E-11
    X_U8.VLIM    1.650E-04
    X_U8.VLP    -2.484E-11
    X_U8.VLN    -2.517E-11
    X_U9.VB      1.102E-09
    X_U9.VC      1.405E-11
    X_U9.VE      1.075E-11
    X_U9.VLIM   -3.297E-04
    X_U9.VLP    -2.533E-11
    X_U9.VLN    -2.467E-11
    X_U10.VB    -1.071E-09
    X_U10.VC     1.075E-11
    X_U10.VE     1.405E-11
    X_U10.VLIM   1.649E-04
    X_U10.VLP   -2.484E-11
    X_U10.VLN   -2.517E-11
    X_U11.VB     4.836E-13
    X_U11.VC     1.240E-11
    X_U11.VE     1.240E-11
    X_U11.VLIM   6.224E-08
    X_U11.VLP   -2.500E-11
    X_U11.VLN   -2.500E-11
    X_U12.VB    -1.425E-09
    X_U12.VC     1.016E-11
    X_U12.VE     1.464E-11
    X_U12.VLIM   6.612E-05
    X_U12.VLP   -2.493E-11
    X_U12.VLN   -2.507E-11

    TOTAL POWER DISSIPATION   2.51E-01  WATTS



          JOB CONCLUDED

**** 06/28/25 16:39:32 **** PSpice 23.1.0 (30 January 2024) *** ID# 0 ********

 ** Profile: "SCHEMATIC1-ACsim"  [ C:\PROJETO_FINAL\Repositório\Esquemático_Simulações_PSpice\audioin-PSpiceFiles\SCHEMATIC1\ACsim.si


 ****     JOB STATISTICS SUMMARY


******************************************************************************



  Total job time (using Solver 1)   =         .55
